<Qucs Dataset 0.0.19>
<indep Rx 100>
  +1.00000000000000000000e+02
  +1.07226722201032330872e+02
  +1.14975699539773586366e+02
  +1.23284673944206616625e+02
  +1.32194114846602900570e+02
  +1.41747416292680497918e+02
  +1.51991108295293372521e+02
  +1.62975083462064418427e+02
  +1.74752840000768372875e+02
  +1.87381742286038388556e+02
  +2.00923300256504688832e+02
  +2.15443469003188369015e+02
  +2.31012970008315988935e+02
  +2.47707635599171055674e+02
  +2.65608778294668582021e+02
  +2.84803586843580148980e+02
  +3.05385550883341466033e+02
  +3.27454916287772789474e+02
  +3.51119173421513039557e+02
  +3.76493580679246747422e+02
  +4.03701725859655368822e+02
  +4.32876128108305806563e+02
  +4.64158883361277844415e+02
  +4.97702356433210979958e+02
  +5.33669923120630869562e+02
  +5.72236765935021594487e+02
  +6.13590727341317119681e+02
  +6.57933224657567848226e+02
  +7.05480231071864182013e+02
  +7.56463327554628790494e+02
  +8.11130830789687024662e+02
  +8.69749002617783162350e+02
  +9.32603346883219728625e+02
  +9.99999999999999772626e+02
  +1.07226722201032293924e+03
  +1.14975699539773540891e+03
  +1.23284673944206588203e+03
  +1.32194114846602860780e+03
  +1.41747416292680463812e+03
  +1.51991108295293292940e+03
  +1.62975083462064344531e+03
  +1.74752840000768355821e+03
  +1.87381742286038388556e+03
  +2.00923300256504694516e+03
  +2.15443469003188374700e+03
  +2.31012970008315915038e+03
  +2.47707635599171044305e+03
  +2.65608778294668582021e+03
  +2.84803586843580069399e+03
  +3.05385550883341466033e+03
  +3.27454916287772721262e+03
  +3.51119173421513005451e+03
  +3.76493580679246679210e+03
  +4.03701725859655289241e+03
  +4.32876128108305601927e+03
  +4.64158883361277639779e+03
  +4.97702356433211025433e+03
  +5.33669923120630937774e+03
  +5.72236765935021594487e+03
  +6.13590727341316960519e+03
  +6.57933224657567916438e+03
  +7.05480231071863818215e+03
  +7.56463327554628631333e+03
  +8.11130830789686388016e+03
  +8.69749002617782934976e+03
  +9.32603346883219819574e+03
  +9.99999999999999636202e+03
  +1.07226722201032316661e+04
  +1.14975699539773522702e+04
  +1.23284673944206606393e+04
  +1.32194114846602824400e+04
  +1.41747416292680500192e+04
  +1.51991108295293252013e+04
  +1.62975083462064394553e+04
  +1.74752840000768264872e+04
  +1.87381742286038315797e+04
  +2.00923300256504553545e+04
  +2.15443469003188292845e+04
  +2.31012970008315787709e+04
  +2.47707635599170971545e+04
  +2.65608778294668372837e+04
  +2.84803586843580051209e+04
  +3.05385550883341529698e+04
  +3.27454916287772684882e+04
  +3.51119173421513114590e+04
  +3.76493580679246588261e+04
  +4.03701725859655343811e+04
  +4.32876128108305492788e+04
  +4.64158883361277694348e+04
  +4.97702356433210661635e+04
  +5.33669923120630774065e+04
  +5.72236765935021248879e+04
  +6.13590727341317033279e+04
  +6.57933224657567334361e+04
  +7.05480231071863963734e+04
  +7.56463327554628049256e+04
  +8.11130830789686588105e+04
  +8.69749002617783116875e+04
  +9.32603346883219201118e+04
  +9.99999999999999708962e+04
</indep>
<dep V1.I Rx>
  -3.07973421926910281843e-02
  -3.01104071645978341176e-02
  -2.94090718320156457866e-02
  -2.86946368673177340525e-02
  -2.79685167746820534385e-02
  -2.72322303628428352695e-02
  -2.64873893079773242709e-02
  -2.57356849596687420334e-02
  -2.49788735983133176888e-02
  -2.42187604029727304722e-02
  -2.34571824320392134655e-02
  -2.26959909529823901375e-02
  -2.19370334801256179624e-02
  -2.11821358896529046700e-02
  -2.04330849783303618306e-02
  -1.96916118168836869196e-02
  -1.89593762214304469016e-02
  -1.82379526282737056131e-02
  -1.75288176106784057695e-02
  -1.68333392233074585764e-02
  -1.61527683033320726413e-02
  -1.54882317994330491462e-02
  -1.48407281434424220823e-02
  -1.42111246264472537715e-02
  -1.36001566936325667123e-02
  -1.30084290313887147167e-02
  -1.24364182871839288463e-02
  -1.18844772378740772684e-02
  -1.13528402055178383179e-02
  -1.08416295110339670760e-02
  -1.03508627545189687419e-02
  -9.88046071584733689996e-03
  -9.43025567926962168808e-03
  -9.00000000000000452416e-03
  -8.58937474813761814296e-03
  -8.19799828464307968334e-03
  -7.82543464453115851509e-03
  -7.47120162311052000981e-03
  -7.13477848130297364476e-03
  -6.81561320525439842677e-03
  -6.51312927319858819830e-03
  -6.22673189856752344606e-03
  -5.95581373249347810483e-03
  -5.69976002105117892510e-03
  -5.45795322285387747574e-03
  -5.22977710102225969158e-03
  -5.01462031020964357775e-03
  -4.81187950444478870077e-03
  -4.62096199521498402635e-03
  -4.44128799163718331749e-03
  -4.27229245593232272865e-03
  -4.11342660789961248047e-03
  -3.96415911184736999284e-03
  -3.82397697861843431644e-03
  -3.69238621408785700970e-03
  -3.56891224392015017630e-03
  -3.45310014255442634251e-03
  -3.34451469242239484911e-03
  -3.24274029736351101713e-03
  -3.14738077214333708542e-03
  -3.05805902794672231776e-03
  -2.97441667174351814101e-03
  -2.89611353553519915854e-03
  -2.82282714970533187351e-03
  -2.75425217302575735256e-03
  -2.69009979032217233855e-03
  -2.63009708737862958269e-03
  -2.57398641136186157041e-03
  -2.52152472386767785226e-03
  -2.47248295263185124612e-03
  -2.42664534699748180718e-03
  -2.38380884138543556322e-03
  -2.34378243026624969586e-03
  -2.30638655747193504694e-03
  -2.27145252210929132416e-03
  -2.23882190283300171532e-03
  -2.20834600180144823359e-03
  -2.17988530926272036300e-03
  -2.15330898939743858866e-03
  -2.12849438777218272559e-03
  -2.10532656052671600030e-03
  -2.08369782522680423165e-03
  -2.06350733315329923356e-03
  -2.04466066266949589303e-03
  -2.02706943320165320147e-03
  -2.01065093928576733157e-03
  -1.99532780406716080818e-03
  -1.98102765159237186043e-03
  -1.96768279719739631536e-03
  -1.95522995527295595855e-03
  -1.94360996367490181796e-03
  -1.93276752404250681990e-03
  -1.92265095728945943111e-03
  -1.91321197353977261700e-03
  -1.90440545579345990590e-03
  -1.89618925662212063632e-03
  -1.88852400721383926682e-03
  -1.88137293810749454265e-03
  -1.87470171097948242085e-03
  -1.86847826086955319524e-03
</dep>
<dep X.V Rx>
  +3.01993355481727565603e+00
  +2.95054617824220644096e+00
  +2.87970422545612514398e+00
  +2.80753907750684206235e+00
  +2.73419361360424773011e+00
  +2.65982124877200298840e+00
  +2.58458477858356872048e+00
  +2.50865504643118697459e+00
  +2.43220945437508229148e+00
  +2.35543034373462045750e+00
  +2.27850327596355750615e+00
  +2.20161524777599915126e+00
  +2.12495287678036692824e+00
  +2.04870059491443479160e+00
  +1.97303888670003790828e+00
  +1.89814260776603016545e+00
  +1.82417941630610647152e+00
  +1.75130834629027343219e+00
  +1.67967854653317250069e+00
  +1.60942820437449163329e+00
  +1.54068366700324110852e+00
  +1.47355876761949988740e+00
  +1.40815435792347787292e+00
  +1.34455804307548110188e+00
  +1.28284411046793622724e+00
  +1.22307363953421344149e+00
  +1.16529477648322532524e+00
  +1.10954315534081704442e+00
  +1.05584244500180246540e+00
  +1.00420500111454291670e+00
  +9.54632601466563812664e-01
  +9.07117244024984503703e-01
  +8.61641987805013775947e-01
  +8.18181818181818232283e-01
  +7.76704520013901333897e-01
  +7.37171543903343162718e-01
  +6.99538852982944825420e-01
  +6.63757739708134009149e-01
  +6.29775604172018166338e-01
  +5.97536687399434773837e-01
  +5.66982754868545324456e-01
  +5.38053727128033232319e-01
  +5.10688255807422497590e-01
  +4.84824244550624228189e-01
  +4.60399315439786571691e-01
  +4.37351222325482680287e-01
  +4.15618213152491700058e-01
  +3.95139343883313676198e-01
  +3.75854746991412469459e-01
  +3.57705857741130728300e-01
  +3.40635601609325711081e-01
  +3.24588546252487064603e-01
  +3.09511021398724550657e-01
  +2.95351209961458027742e-01
  +2.82059213544229803183e-01
  +2.69587095345470595387e-01
  +2.57888903288326754026e-01
  +2.46920676002261918480e-01
  +2.36640434077122013834e-01
  +2.27008158802357751238e-01
  +2.17985760398660521897e-01
  +2.09537037549851257179e-01
  +2.01627629852040468617e-01
  +1.94224964616700024322e-01
  +1.87298199295532152853e-01
  +1.80818160638603592227e-01
  +1.74757281553398063911e-01
  +1.69089536501198789420e-01
  +1.63790376148251343169e-01
  +1.58836661882007512681e-01
  +1.54206600706817104074e-01
  +1.49879680948023813469e-01
  +1.45836609117803134295e-01
  +1.42059248229489815118e-01
  +1.38530557788818842191e-01
  +1.35234535639698005838e-01
  +1.32156161798125865170e-01
  +1.29281344369971101793e-01
  +1.26596867615904273840e-01
  +1.24090342199210196261e-01
  +1.21750157628962824008e-01
  +1.19565436891597029478e-01
  +1.17525993247809490416e-01
  +1.15622289158533966824e-01
  +1.13845397293097116975e-01
  +1.12186963564220379408e-01
  +1.10639172127995955019e-01
  +1.09194712282058237207e-01
  +1.07846747191656808229e-01
  +1.06588884371005776508e-01
  +1.05415147845949672134e-01
  +1.04319951923486836654e-01
  +1.03298076493885712668e-01
  +1.02344643791897088603e-01
  +1.01455096544794329261e-01
  +1.00625177436578297496e-01
  +9.98509098195800165465e-02
  +9.91285796068178959306e-02
  +9.84547182807559290163e-02
  +9.78260869565217433541e-02
</dep>
<dep _net1.V Rx>
  +5.98006644518272345579e+00
  +6.04945382175779400313e+00
  +6.12029577454387307966e+00
  +6.19246092249315793765e+00
  +6.26580638639575138171e+00
  +6.34017875122799523524e+00
  +6.41541522141643127952e+00
  +6.49134495356881302541e+00
  +6.56779054562491637625e+00
  +6.64456965626538043068e+00
  +6.72149672403644249385e+00
  +6.79838475222399996056e+00
  +6.87504712321963395993e+00
  +6.95129940508556476431e+00
  +7.02696111329996320194e+00
  +7.10185739223396961251e+00
  +7.17582058369389397257e+00
  +7.24869165370972634577e+00
  +7.32032145346682749931e+00
  +7.39057179562550903285e+00
  +7.45931633299675933557e+00
  +7.52644123238049989055e+00
  +7.59184564207652190504e+00
  +7.65544195692451889812e+00
  +7.71715588953206399481e+00
  +7.77692636046578567033e+00
  +7.83470522351677445272e+00
  +7.89045684465918295558e+00
  +7.94415755499819731256e+00
  +7.99579499888545619513e+00
  +8.04536739853343618734e+00
  +8.09288275597501538527e+00
  +8.13835801219498655712e+00
  +8.18181818181817988034e+00
  +8.22329547998609911019e+00
  +8.26282845609665805853e+00
  +8.30046114701705484151e+00
  +8.33624226029186665698e+00
  +8.37022439582798227775e+00
  +8.40246331260056500412e+00
  +8.43301724513145423145e+00
  +8.46194627287196610155e+00
  +8.48931174419257850161e+00
  +8.51517575544937521670e+00
  +8.53960068456021303973e+00
  +8.56264877767451793034e+00
  +8.58438178684751029834e+00
  +8.60486065611668671238e+00
  +8.62414525300858691992e+00
  +8.64229414225886927170e+00
  +8.65936439839067340074e+00
  +8.67541145374751287989e+00
  +8.69048897860127489423e+00
  +8.70464879003854186124e+00
  +8.71794078645577030784e+00
  +8.73041290465453023728e+00
  +8.74211109671167285740e+00
  +8.75307932399773669374e+00
  +8.76335956592287779188e+00
  +8.77299184119764241530e+00
  +8.78201423960133986668e+00
  +8.79046296245014957549e+00
  +8.79837237014795903178e+00
  +8.80577503538329864341e+00
  +8.81270180070446862430e+00
  +8.81918183936139676860e+00
  +8.82524271844660290753e+00
  +8.83091046349880137711e+00
  +8.83620962385174912868e+00
  +8.84116333811799393061e+00
  +8.84579339929318386737e+00
  +8.85012031905197638082e+00
  +8.85416339088219572773e+00
  +8.85794075177050999059e+00
  +8.86146944221118282314e+00
  +8.86476546436030155007e+00
  +8.86784383820187294134e+00
  +8.87071865563002859290e+00
  +8.87340313238409628127e+00
  +8.87590965780078988701e+00
  +8.87824984237103720375e+00
  +8.88043456310840362278e+00
  +8.88247400675219012101e+00
  +8.88437771084146454825e+00
  +8.88615460270690249445e+00
  +8.88781303643578013407e+00
  +8.88936082787200376742e+00
  +8.89080528771794220688e+00
  +8.89215325280834356647e+00
  +8.89341111562899477860e+00
  +8.89458485215405048052e+00
  +8.89568004807651391275e+00
  +8.89670192350611443999e+00
  +8.89765535620810155137e+00
  +8.89854490345520510175e+00
  +8.89937482256342171638e+00
  +8.90014909018042033040e+00
  +8.90087142039318202080e+00
  +8.90154528171924397384e+00
  +8.90217391304347849257e+00
</dep>
<dep _net0.V Rx>
  +9.00000000000000000000e+00
  +9.00000000000000000000e+00
  +9.00000000000000000000e+00
  +9.00000000000000000000e+00
  +9.00000000000000000000e+00
  +9.00000000000000000000e+00
  +9.00000000000000000000e+00
  +9.00000000000000000000e+00
  +9.00000000000000000000e+00
  +9.00000000000000000000e+00
  +9.00000000000000000000e+00
  +9.00000000000000000000e+00
  +9.00000000000000000000e+00
  +9.00000000000000000000e+00
  +9.00000000000000000000e+00
  +9.00000000000000000000e+00
  +9.00000000000000000000e+00
  +9.00000000000000000000e+00
  +9.00000000000000000000e+00
  +9.00000000000000000000e+00
  +9.00000000000000000000e+00
  +9.00000000000000000000e+00
  +9.00000000000000000000e+00
  +9.00000000000000000000e+00
  +9.00000000000000000000e+00
  +9.00000000000000000000e+00
  +9.00000000000000000000e+00
  +9.00000000000000000000e+00
  +9.00000000000000000000e+00
  +9.00000000000000000000e+00
  +9.00000000000000000000e+00
  +9.00000000000000000000e+00
  +9.00000000000000000000e+00
  +9.00000000000000000000e+00
  +9.00000000000000000000e+00
  +9.00000000000000000000e+00
  +9.00000000000000000000e+00
  +9.00000000000000000000e+00
  +9.00000000000000000000e+00
  +9.00000000000000000000e+00
  +9.00000000000000000000e+00
  +9.00000000000000000000e+00
  +9.00000000000000000000e+00
  +9.00000000000000000000e+00
  +9.00000000000000000000e+00
  +9.00000000000000000000e+00
  +9.00000000000000000000e+00
  +9.00000000000000000000e+00
  +9.00000000000000000000e+00
  +9.00000000000000000000e+00
  +9.00000000000000000000e+00
  +9.00000000000000000000e+00
  +9.00000000000000000000e+00
  +9.00000000000000000000e+00
  +9.00000000000000000000e+00
  +9.00000000000000000000e+00
  +9.00000000000000000000e+00
  +9.00000000000000000000e+00
  +9.00000000000000000000e+00
  +9.00000000000000000000e+00
  +9.00000000000000000000e+00
  +9.00000000000000000000e+00
  +9.00000000000000000000e+00
  +9.00000000000000000000e+00
  +9.00000000000000000000e+00
  +9.00000000000000000000e+00
  +9.00000000000000000000e+00
  +9.00000000000000000000e+00
  +9.00000000000000000000e+00
  +9.00000000000000000000e+00
  +9.00000000000000000000e+00
  +9.00000000000000000000e+00
  +9.00000000000000000000e+00
  +9.00000000000000000000e+00
  +9.00000000000000000000e+00
  +9.00000000000000000000e+00
  +9.00000000000000000000e+00
  +9.00000000000000000000e+00
  +9.00000000000000000000e+00
  +9.00000000000000000000e+00
  +9.00000000000000000000e+00
  +9.00000000000000000000e+00
  +9.00000000000000000000e+00
  +9.00000000000000000000e+00
  +9.00000000000000000000e+00
  +9.00000000000000000000e+00
  +9.00000000000000000000e+00
  +9.00000000000000000000e+00
  +9.00000000000000000000e+00
  +9.00000000000000000000e+00
  +9.00000000000000000000e+00
  +9.00000000000000000000e+00
  +9.00000000000000000000e+00
  +9.00000000000000000000e+00
  +9.00000000000000000000e+00
  +9.00000000000000000000e+00
  +9.00000000000000000000e+00
  +9.00000000000000000000e+00
  +9.00000000000000000000e+00
  +9.00000000000000000000e+00
</dep>
